<Qucs Dataset 0.0.15>
<indep x 10>
  +5.00000000000e+00
  +1.00000000000e+01
  +1.50000000000e+01
  +2.00000000000e+01
  +2.50000000000e+01
  +3.00000000000e+01
  +3.50000000000e+01
  +4.00000000000e+01
  +4.50000000000e+01
  +5.00000000000e+01
</indep>
<dep V1.I x>
  -1.31428571429e+00
  -9.68421052632e-01
  -7.66666666667e-01
  -6.34482758621e-01
  -5.41176470588e-01
  -4.71794871795e-01
  -4.18181818182e-01
  -3.75510204082e-01
  -3.40740740741e-01
  -3.11864406780e-01
</dep>
<dep izeja.V x>
  +6.57142857143e+00
  +9.68421052632e+00
  +1.15000000000e+01
  +1.26896551724e+01
  +1.35294117647e+01
  +1.41538461538e+01
  +1.46363636364e+01
  +1.50204081633e+01
  +1.53333333333e+01
  +1.55932203390e+01
</dep>
<dep _net0.V x>
  +1.84000000000e+01
  +1.84000000000e+01
  +1.84000000000e+01
  +1.84000000000e+01
  +1.84000000000e+01
  +1.84000000000e+01
  +1.84000000000e+01
  +1.84000000000e+01
  +1.84000000000e+01
  +1.84000000000e+01
</dep>
